
T49C0 000:405 SEGGER J-Link V5.12f Log File (0000ms, 0337ms total)
T49C0 000:405 DLL Compiled: May 17 2016 16:03:35 (0000ms, 0337ms total)
T49C0 000:405 Logging started @ 2017-04-06 16:10 (0000ms, 0337ms total)
T49C0 000:405 JLINK_SetWarnOutHandler(...) (0000ms, 0337ms total)
T49C0 000:405 JLINK_OpenEx(...)
Firmware: J-Link V9 compiled Apr 22 2016 11:47:06
Hardware: V9.20
Feature(s): RDI, GDB, FlashDL, FlashBP, JFlash, RDDI  returns O.K. (0323ms, 0660ms total)
T49C0 000:728 JLINK_SetErrorOutHandler(...) (0000ms, 0660ms total)
T49C0 000:728 JLINK_ExecCommand("ProjectFile = "C:\Users\koukou\Desktop\program\test_ARM\JLinkSettings.ini"", ...)  returns 0x00 (0001ms, 0661ms total)
T49C0 000:738 JLINK_ExecCommand("Device = STM32F103VE", ...)Device "STM32F103VE" selected.  returns 0x00 (0024ms, 0685ms total)
T49C0 000:762 JLINK_ExecCommand("DisableConnectionTimeout", ...)  returns 0x01 (0000ms, 0685ms total)
T49C0 000:762 JLINK_GetHardwareVersion()  returns 0x16760 (0000ms, 0685ms total)
T49C0 000:762 JLINK_GetDLLVersion()  returns 51206 (0000ms, 0685ms total)
T49C0 000:762 JLINK_GetFirmwareString(...) (0000ms, 0685ms total)
T49C0 000:770 JLINK_GetDLLVersion()  returns 51206 (0000ms, 0685ms total)
T49C0 000:770 JLINK_GetCompileDateTime() (0000ms, 0685ms total)
T49C0 000:772 JLINK_GetFirmwareString(...) (0000ms, 0685ms total)
T49C0 000:773 JLINK_GetHardwareVersion()  returns 0x16760 (0001ms, 0686ms total)
T49C0 000:786 JLINK_TIF_Select(JLINKARM_TIF_SWD)  returns 0x00 (0004ms, 0690ms total)
T49C0 000:790 JLINK_SetSpeed(50) (0001ms, 0691ms total)
T49C0 000:791 JLINK_GetId() >0x108 TIF>Found SWD-DP with ID 0x2BA01477 >0x0D TIF> >0x28 TIF> >0x0D TIF> >0x28 TIF> >0x0D TIF> >0x28 TIF> >0x0D TIF> >0x28 TIF> >0x0D TIF> >0x21 TIF> >0x0D TIF> >0x28 TIF> >0x0D TIF> >0x28 TIF> >0x0D TIF> >0x28 TIF> >0x0D TIF> >0x21 TIF> >0x0D TIF> >0x21 TIF> >0x0D TIF> >0x28 TIF> >0x0D TIF> >0x21 TIF> >0x0D TIF> >0x21 TIF> >0x0D TIF> >0x28 TIF> >0x0D TIF> >0x28 TIF> >0x0D TIF> >0x28 TIF> >0x0D TIF> >0x21 TIF> >0x0D TIF> >0x21 TIF> >0x0D TIF> >0x28 TIF> >0x0D TIF>
 >0x21 TIF> >0x0D TIF> >0x21 TIF> >0x0D TIF> >0x28 TIF> >0x0D TIF> >0x21 TIF> >0x0D TIF> >0x21 TIF> >0x0D TIF> >0x28 TIF> >0x0D TIF> >0x21 TIF> >0x0D TIF> >0x21 TIF> >0x108 TIF>Found SWD-DP with ID 0x2BA01477 >0x0D TIF> >0x28 TIF> >0x0D TIF> >0x28 TIF> >0x0D TIF> >0x28 TIF> >0x0D TIF> >0x28 TIF> >0x0D TIF> >0x21 TIF> >0x0D TIF> >0x28 TIF> >0x0D TIF> >0x28 TIF> >0x0D TIF> >0x21 TIF> >0x0D TIF> >0x21 TIF> >0x0D TIF> >0x21 TIF> >0x0D TIF> >0x28 TIF> >0x0D TIF> >0x28 TIF> >0x0D TIF> >0x28 TIF> >0x0D TIF>
 >0x21 TIF> >0x0D TIF> >0x21 TIF> >0x0D TIF> >0x28 TIF> >0x0D TIF> >0x21 TIF> >0x0D TIF> >0x21 TIF>Found Cortex-M3 r2p0, Little endian. -- CPU_ReadMem(4 bytes @ 0xE000EDF0) -- CPU_WriteMem(4 bytes @ 0xE000EDF0) -- CPU_ReadMem(4 bytes @ 0xE0002000)FPUnit: 6 code (BP) slots and 2 literal slots -- CPU_ReadMem(4 bytes @ 0xE000EDFC) -- CPU_WriteMem(4 bytes @ 0xE000EDFC) -- CPU_ReadMem(4 bytes @ 0xE0001000) -- CPU_WriteMem(4 bytes @ 0xE0001000) -- CPU_ReadMem(4 bytes @ 0xE000ED88)
 -- CPU_WriteMem(4 bytes @ 0xE000ED88) -- CPU_ReadMem(4 bytes @ 0xE000ED88) -- CPU_WriteMem(4 bytes @ 0xE000ED88)CoreSight components:ROMTbl 0 @ E00FF000 -- CPU_ReadMem(16 bytes @ 0xE00FF000) -- CPU_ReadMem(16 bytes @ 0xE000EFF0) -- CPU_ReadMem(16 bytes @ 0xE000EFE0)ROMTbl 0 [0]: FFF0F000, CID: B105E00D, PID: 002BB000 SCS -- CPU_ReadMem(16 bytes @ 0xE0001FF0) -- CPU_ReadMem(16 bytes @ 0xE0001FE0)ROMTbl 0 [1]: FFF02000, CID: B105E00D, PID: 002BB002 DWT -- CPU_ReadMem(16 bytes @ 0xE0002FF0)
 -- CPU_ReadMem(16 bytes @ 0xE0002FE0)ROMTbl 0 [2]: FFF03000, CID: B105E00D, PID: 002BB003 FPB -- CPU_ReadMem(16 bytes @ 0xE0000FF0) -- CPU_ReadMem(16 bytes @ 0xE0000FE0)ROMTbl 0 [3]: FFF01000, CID: B105E00D, PID: 002BB001 ITM -- CPU_ReadMem(16 bytes @ 0xE00FF010) -- CPU_ReadMem(16 bytes @ 0xE0040FF0) -- CPU_ReadMem(16 bytes @ 0xE0040FE0)ROMTbl 0 [4]: FFF41000, CID: B105900D, PID: 002BB923 TPIU-Lite -- CPU_ReadMem(16 bytes @ 0xE0041FF0) -- CPU_ReadMem(16 bytes @ 0xE0041FE0)
ROMTbl 0 [5]: FFF42000, CID: B105900D, PID: 002BB924 ETM-M3 >0x0D TIF> >0x21 TIF>  returns 0x2BA01477 (0465ms, 1156ms total)
T49C0 001:256 JLINK_GetDeviceFamily()  returns 3 (0000ms, 1156ms total)
T49C0 001:267 JLINK_ReadMem (0xE00FFFF0, 0x0010 Bytes, ...) -- CPU is running -- CPU_ReadMem(16 bytes @ 0xE00FFFF0) - Data: 0D 00 00 00 10 00 00 00 05 00 00 00 B1 00 00 00  returns 0x00 (0010ms, 1167ms total)
T49C0 001:277 JLINK_ReadMem (0xE00FFFD0, 0x0020 Bytes, ...) -- CPU is running -- CPU_ReadMem(32 bytes @ 0xE00FFFD0) - Data: 00 00 00 00 00 00 00 00 00 00 00 00 00 00 00 00 ...  returns 0x00 (0014ms, 1181ms total)
T49C0 001:291 JLINK_ReadMem (0xE00FF000, 0x0018 Bytes, ...) -- CPU is running -- CPU_ReadMem(24 bytes @ 0xE00FF000) - Data: 03 F0 F0 FF 03 20 F0 FF 03 30 F0 FF 03 10 F0 FF ...  returns 0x00 (0012ms, 1193ms total)
T49C0 001:303 JLINK_ReadMemU32(0xE000ED00, 0x0001 Items, ...) -- CPU is running -- CPU_ReadMem(4 bytes @ 0xE000ED00) - Data: 30 C2 2F 41  returns 0x01 (0007ms, 1200ms total)
T49C0 001:310 JLINK_SetResetType(JLINKARM_RESET_TYPE_NORMAL)  returns JLINKARM_RESET_TYPE_NORMAL (0000ms, 1200ms total)
T49C0 001:310 JLINK_Reset() -- CPU is running -- CPU_WriteMem(4 bytes @ 0xE000EDF0) -- CPU is running -- CPU_WriteMem(4 bytes @ 0xE000EDFC) >0x35 TIF> -- CPU is running -- CPU_WriteMem(4 bytes @ 0xE000ED0C) -- CPU is running -- CPU_ReadMem(4 bytes @ 0xE000EDF0) -- CPU is running -- CPU_ReadMem(4 bytes @ 0xE000EDF0) -- CPU is running -- CPU_WriteMem(4 bytes @ 0xE000EDF0) -- CPU is running -- CPU_WriteMem(4 bytes @ 0xE000EDFC) -- CPU is running -- CPU_ReadMem(4 bytes @ 0xE000EDF0)
 -- CPU_WriteMem(4 bytes @ 0xE0002000) -- CPU_ReadMem(4 bytes @ 0xE000EDFC) -- CPU_ReadMem(4 bytes @ 0xE0001000) (0198ms, 1398ms total)
T49C0 001:508 JLINK_Halt()  returns 0x00 (0000ms, 1398ms total)
T49C0 001:508 JLINK_IsHalted()  returns TRUE (0000ms, 1398ms total)
T49C0 001:508 JLINK_ReadMemU32(0xE000EDF0, 0x0001 Items, ...) -- CPU_ReadMem(4 bytes @ 0xE000EDF0) - Data: 03 00 03 00  returns 0x01 (0007ms, 1405ms total)
T49C0 001:515 JLINK_WriteU32(0xE000EDF0, 0xA05F0003) -- CPU_WriteMem(4 bytes @ 0xE000EDF0)  returns 0x00 (0006ms, 1411ms total)
T49C0 001:521 JLINK_WriteU32(0xE000EDFC, 0x01000000) -- CPU_WriteMem(4 bytes @ 0xE000EDFC)  returns 0x00 (0007ms, 1418ms total)
T49C0 001:541 JLINK_GetHWStatus(...)  returns 0x00 (0001ms, 1419ms total)
T49C0 001:553 JLINK_GetNumBPUnits(Type = 0xFFFFFF00)  returns 0x06 (0000ms, 1419ms total)
T49C0 001:553 JLINK_GetNumBPUnits(Type = 0xF0)  returns 0x2000 (0000ms, 1419ms total)
T49C0 001:553 JLINK_GetNumWPUnits()  returns 0x04 (0000ms, 1419ms total)
T49C0 001:559 JLINK_GetSpeed()  returns 0x32 (0000ms, 1419ms total)
T49C0 001:565 JLINK_ReadMemU32(0xE000E004, 0x0001 Items, ...) -- CPU_ReadMem(4 bytes @ 0xE000E004) - Data: 02 00 00 00  returns 0x01 (0007ms, 1426ms total)
T49C0 001:572 JLINK_ReadMemU32(0xE000E004, 0x0001 Items, ...) -- CPU_ReadMem(4 bytes @ 0xE000E004) - Data: 02 00 00 00  returns 0x01 (0006ms, 1432ms total)
T49C0 001:578 JLINK_WriteMem(0xE0001000, 0x001C Bytes, ...) - Data: 01 00 00 00 00 00 00 00 00 00 00 00 00 00 00 00 ... -- CPU_WriteMem(28 bytes @ 0xE0001000)  returns 0x1C (0013ms, 1445ms total)
T49C0 001:591 JLINK_ReadMem (0xE0001000, 0x001C Bytes, ...) -- CPU_ReadMem(28 bytes @ 0xE0001000) - Data: 01 00 00 40 00 00 00 00 00 00 00 00 00 00 00 00 ...  returns 0x00 (0013ms, 1458ms total)
T49C0 001:604 JLINK_Halt()  returns 0x00 (0000ms, 1458ms total)
T49C0 001:604 JLINK_IsHalted()  returns TRUE (0000ms, 1458ms total)
T49C0 001:606 JLINK_WriteMem(0x20000000, 0x0164 Bytes, ...) - Data: 00 BE 0A E0 0D 78 2D 06 68 40 08 24 40 00 00 D3 ... -- CPU_WriteMem(356 bytes @ 0x20000000)  returns 0x164 (0098ms, 1556ms total)
T49C0 001:704 JLINK_WriteReg(R0, 0x08000000)  returns 0x00 (0000ms, 1556ms total)
T49C0 001:704 JLINK_WriteReg(R1, 0x00B71B00)  returns 0x00 (0000ms, 1556ms total)
T49C0 001:704 JLINK_WriteReg(R2, 0x00000001)  returns 0x00 (0000ms, 1556ms total)
T49C0 001:704 JLINK_WriteReg(R3, 0x00000000)  returns 0x00 (0000ms, 1556ms total)
T49C0 001:704 JLINK_WriteReg(R4, 0x00000000)  returns 0x00 (0000ms, 1556ms total)
T49C0 001:704 JLINK_WriteReg(R5, 0x00000000)  returns 0x00 (0000ms, 1556ms total)
T49C0 001:704 JLINK_WriteReg(R6, 0x00000000)  returns 0x00 (0000ms, 1556ms total)
T49C0 001:704 JLINK_WriteReg(R7, 0x00000000)  returns 0x00 (0000ms, 1556ms total)
T49C0 001:704 JLINK_WriteReg(R8, 0x00000000)  returns 0x00 (0000ms, 1556ms total)
T49C0 001:704 JLINK_WriteReg(R9, 0x20000160)  returns 0x00 (0000ms, 1556ms total)
T49C0 001:704 JLINK_WriteReg(R10, 0x00000000)  returns 0x00 (0000ms, 1556ms total)
T49C0 001:704 JLINK_WriteReg(R11, 0x00000000)  returns 0x00 (0001ms, 1557ms total)
T49C0 001:705 JLINK_WriteReg(R12, 0x00000000)  returns 0x00 (0000ms, 1557ms total)
T49C0 001:705 JLINK_WriteReg(R13 (SP), 0x20001000)  returns 0x00 (0000ms, 1557ms total)
T49C0 001:705 JLINK_WriteReg(R14, 0x20000001)  returns 0x00 (0000ms, 1557ms total)
T49C0 001:705 JLINK_WriteReg(R15 (PC), 0x20000038)  returns 0x00 (0000ms, 1557ms total)
T49C0 001:705 JLINK_WriteReg(XPSR, 0x01000000)  returns 0x00 (0000ms, 1557ms total)
T49C0 001:705 JLINK_WriteReg(MSP, 0x20001000)  returns 0x00 (0000ms, 1557ms total)
T49C0 001:705 JLINK_WriteReg(PSP, 0x20001000)  returns 0x00 (0000ms, 1557ms total)
T49C0 001:705 JLINK_WriteReg(CFBP, 0x00000000)  returns 0x00 (0000ms, 1557ms total)
T49C0 001:705 JLINK_SetBPEx(Addr = 0x20000000, Type = 0xFFFFFFF2) -- CPU_ReadMem(2 bytes @ 0x20000000)  returns 0x00000001 (0006ms, 1563ms total)
T49C0 001:711 JLINK_Go() -- CPU_WriteMem(2 bytes @ 0x20000000) -- CPU_ReadMem(4 bytes @ 0xE0001000) -- CPU_WriteMem(4 bytes @ 0xE0002008) -- CPU_WriteMem(4 bytes @ 0xE000200C) -- CPU_WriteMem(4 bytes @ 0xE0002010) -- CPU_WriteMem(4 bytes @ 0xE0002014) -- CPU_WriteMem(4 bytes @ 0xE0002018) -- CPU_WriteMem(4 bytes @ 0xE000201C) -- CPU_WriteMem(4 bytes @ 0xE0001004) (0112ms, 1675ms total)
T49C0 001:823 JLINK_IsHalted() -- CPU_ReadMem(2 bytes @ 0x20000000)  returns TRUE (0120ms, 1795ms total)
T49C0 001:944 JLINK_ReadReg(R15 (PC))  returns 0x20000000 (0000ms, 1675ms total)
T49C0 001:944 JLINK_ClrBPEx(BPHandle = 0x00000001)  returns 0x00 (0000ms, 1675ms total)
T49C0 001:944 JLINK_ReadReg(R0)  returns 0x00000000 (0000ms, 1675ms total)
T49C0 001:947 JLINK_WriteReg(R0, 0x08000000)  returns 0x00 (0000ms, 1675ms total)
T49C0 001:947 JLINK_WriteReg(R1, 0x00000800)  returns 0x00 (0000ms, 1675ms total)
T49C0 001:947 JLINK_WriteReg(R2, 0x000000FF)  returns 0x00 (0000ms, 1675ms total)
T49C0 001:947 JLINK_WriteReg(R3, 0x00000000)  returns 0x00 (0000ms, 1675ms total)
T49C0 001:947 JLINK_WriteReg(R4, 0x00000000)  returns 0x00 (0000ms, 1675ms total)
T49C0 001:947 JLINK_WriteReg(R5, 0x00000000)  returns 0x00 (0000ms, 1675ms total)
T49C0 001:947 JLINK_WriteReg(R6, 0x00000000)  returns 0x00 (0000ms, 1675ms total)
T49C0 001:947 JLINK_WriteReg(R7, 0x00000000)  returns 0x00 (0000ms, 1675ms total)
T49C0 001:947 JLINK_WriteReg(R8, 0x00000000)  returns 0x00 (0000ms, 1675ms total)
T49C0 001:947 JLINK_WriteReg(R9, 0x20000160)  returns 0x00 (0001ms, 1676ms total)
T49C0 001:948 JLINK_WriteReg(R10, 0x00000000)  returns 0x00 (0000ms, 1676ms total)
T49C0 001:948 JLINK_WriteReg(R11, 0x00000000)  returns 0x00 (0000ms, 1676ms total)
T49C0 001:948 JLINK_WriteReg(R12, 0x00000000)  returns 0x00 (0000ms, 1676ms total)
T49C0 001:948 JLINK_WriteReg(R13 (SP), 0x20001000)  returns 0x00 (0000ms, 1676ms total)
T49C0 001:948 JLINK_WriteReg(R14, 0x20000001)  returns 0x00 (0000ms, 1676ms total)
T49C0 001:948 JLINK_WriteReg(R15 (PC), 0x20000020)  returns 0x00 (0000ms, 1676ms total)
T49C0 001:948 JLINK_WriteReg(XPSR, 0x01000000)  returns 0x00 (0000ms, 1676ms total)
T49C0 001:948 JLINK_WriteReg(MSP, 0x20001000)  returns 0x00 (0000ms, 1676ms total)
T49C0 001:948 JLINK_WriteReg(PSP, 0x20001000)  returns 0x00 (0001ms, 1677ms total)
T49C0 001:949 JLINK_WriteReg(CFBP, 0x00000000)  returns 0x00 (0000ms, 1677ms total)
T49C0 001:949 JLINK_SetBPEx(Addr = 0x20000000, Type = 0xFFFFFFF2)  returns 0x00000002 (0000ms, 1677ms total)
T49C0 001:949 JLINK_Go() -- CPU_ReadMem(4 bytes @ 0xE0001000) (0052ms, 1729ms total)
T49C0 002:001 JLINK_IsHalted() -- CPU_ReadMem(2 bytes @ 0x20000000)  returns TRUE (0121ms, 1850ms total)
T49C0 002:122 JLINK_ReadReg(R15 (PC))  returns 0x20000000 (0001ms, 1730ms total)
T49C0 002:123 JLINK_ClrBPEx(BPHandle = 0x00000002)  returns 0x00 (0000ms, 1730ms total)
T49C0 002:123 JLINK_ReadReg(R0)  returns 0x00000001 (0000ms, 1730ms total)
T49C0 002:123 JLINK_WriteReg(R0, 0x08000000)  returns 0x00 (0000ms, 1730ms total)
T49C0 002:123 JLINK_WriteReg(R1, 0x00000800)  returns 0x00 (0000ms, 1730ms total)
T49C0 002:123 JLINK_WriteReg(R2, 0x000000FF)  returns 0x00 (0000ms, 1730ms total)
T49C0 002:123 JLINK_WriteReg(R3, 0x00000000)  returns 0x00 (0000ms, 1730ms total)
T49C0 002:123 JLINK_WriteReg(R4, 0x00000000)  returns 0x00 (0000ms, 1730ms total)
T49C0 002:123 JLINK_WriteReg(R5, 0x00000000)  returns 0x00 (0000ms, 1730ms total)
T49C0 002:123 JLINK_WriteReg(R6, 0x00000000)  returns 0x00 (0000ms, 1730ms total)
T49C0 002:123 JLINK_WriteReg(R7, 0x00000000)  returns 0x00 (0000ms, 1730ms total)
T49C0 002:123 JLINK_WriteReg(R8, 0x00000000)  returns 0x00 (0000ms, 1730ms total)
T49C0 002:123 JLINK_WriteReg(R9, 0x20000160)  returns 0x00 (0000ms, 1730ms total)
T49C0 002:124 JLINK_WriteReg(R10, 0x00000000)  returns 0x00 (0000ms, 1731ms total)
T49C0 002:124 JLINK_WriteReg(R11, 0x00000000)  returns 0x00 (0000ms, 1731ms total)
T49C0 002:124 JLINK_WriteReg(R12, 0x00000000)  returns 0x00 (0000ms, 1731ms total)
T49C0 002:124 JLINK_WriteReg(R13 (SP), 0x20001000)  returns 0x00 (0000ms, 1731ms total)
T49C0 002:124 JLINK_WriteReg(R14, 0x20000001)  returns 0x00 (0000ms, 1731ms total)
T49C0 002:124 JLINK_WriteReg(R15 (PC), 0x200000B6)  returns 0x00 (0000ms, 1731ms total)
T49C0 002:124 JLINK_WriteReg(XPSR, 0x01000000)  returns 0x00 (0000ms, 1731ms total)
T49C0 002:124 JLINK_WriteReg(MSP, 0x20001000)  returns 0x00 (0000ms, 1731ms total)
T49C0 002:124 JLINK_WriteReg(PSP, 0x20001000)  returns 0x00 (0000ms, 1731ms total)
T49C0 002:124 JLINK_WriteReg(CFBP, 0x00000000)  returns 0x00 (0000ms, 1731ms total)
T49C0 002:124 JLINK_SetBPEx(Addr = 0x20000000, Type = 0xFFFFFFF2)  returns 0x00000003 (0000ms, 1731ms total)
T49C0 002:124 JLINK_Go() -- CPU_ReadMem(4 bytes @ 0xE0001000) (0044ms, 1775ms total)
T49C0 002:169 JLINK_IsHalted() -- CPU_ReadMem(2 bytes @ 0x20000000)  returns TRUE (0120ms, 1895ms total)
T49C0 002:289 JLINK_ReadReg(R15 (PC))  returns 0x20000000 (0001ms, 1776ms total)
T49C0 002:290 JLINK_ClrBPEx(BPHandle = 0x00000003)  returns 0x00 (0000ms, 1776ms total)
T49C0 002:290 JLINK_ReadReg(R0)  returns 0x00000000 (0000ms, 1776ms total)
T49C0 002:291 JLINK_WriteReg(R0, 0x08000800)  returns 0x00 (0000ms, 1776ms total)
T49C0 002:291 JLINK_WriteReg(R1, 0x00000800)  returns 0x00 (0000ms, 1776ms total)
T49C0 002:291 JLINK_WriteReg(R2, 0x000000FF)  returns 0x00 (0000ms, 1776ms total)
T49C0 002:291 JLINK_WriteReg(R3, 0x00000000)  returns 0x00 (0000ms, 1776ms total)
T49C0 002:292 JLINK_WriteReg(R4, 0x00000000)  returns 0x00 (0000ms, 1776ms total)
T49C0 002:292 JLINK_WriteReg(R5, 0x00000000)  returns 0x00 (0000ms, 1776ms total)
T49C0 002:292 JLINK_WriteReg(R6, 0x00000000)  returns 0x00 (0000ms, 1776ms total)
T49C0 002:292 JLINK_WriteReg(R7, 0x00000000)  returns 0x00 (0000ms, 1776ms total)
T49C0 002:292 JLINK_WriteReg(R8, 0x00000000)  returns 0x00 (0000ms, 1776ms total)
T49C0 002:292 JLINK_WriteReg(R9, 0x20000160)  returns 0x00 (0000ms, 1776ms total)
T49C0 002:292 JLINK_WriteReg(R10, 0x00000000)  returns 0x00 (0000ms, 1776ms total)
T49C0 002:292 JLINK_WriteReg(R11, 0x00000000)  returns 0x00 (0000ms, 1776ms total)
T49C0 002:292 JLINK_WriteReg(R12, 0x00000000)  returns 0x00 (0000ms, 1776ms total)
T49C0 002:292 JLINK_WriteReg(R13 (SP), 0x20001000)  returns 0x00 (0000ms, 1776ms total)
T49C0 002:292 JLINK_WriteReg(R14, 0x20000001)  returns 0x00 (0001ms, 1777ms total)
T49C0 002:293 JLINK_WriteReg(R15 (PC), 0x20000020)  returns 0x00 (0000ms, 1777ms total)
T49C0 002:293 JLINK_WriteReg(XPSR, 0x01000000)  returns 0x00 (0000ms, 1777ms total)
T49C0 002:293 JLINK_WriteReg(MSP, 0x20001000)  returns 0x00 (0000ms, 1777ms total)
T49C0 002:293 JLINK_WriteReg(PSP, 0x20001000)  returns 0x00 (0000ms, 1777ms total)
T49C0 002:293 JLINK_WriteReg(CFBP, 0x00000000)  returns 0x00 (0000ms, 1777ms total)
T49C0 002:293 JLINK_SetBPEx(Addr = 0x20000000, Type = 0xFFFFFFF2)  returns 0x00000004 (0000ms, 1777ms total)
T49C0 002:293 JLINK_Go() -- CPU_ReadMem(4 bytes @ 0xE0001000) (0048ms, 1825ms total)
T49C0 002:342 JLINK_IsHalted() -- CPU_ReadMem(2 bytes @ 0x20000000)  returns TRUE (0120ms, 1945ms total)
T49C0 002:462 JLINK_ReadReg(R15 (PC))  returns 0x20000000 (0000ms, 1825ms total)
T49C0 002:462 JLINK_ClrBPEx(BPHandle = 0x00000004)  returns 0x00 (0000ms, 1825ms total)
T49C0 002:462 JLINK_ReadReg(R0)  returns 0x00000001 (0000ms, 1825ms total)
T49C0 002:462 JLINK_WriteReg(R0, 0x08000800)  returns 0x00 (0000ms, 1825ms total)
T49C0 002:462 JLINK_WriteReg(R1, 0x00000800)  returns 0x00 (0000ms, 1825ms total)
T49C0 002:462 JLINK_WriteReg(R2, 0x000000FF)  returns 0x00 (0000ms, 1825ms total)
T49C0 002:462 JLINK_WriteReg(R3, 0x00000000)  returns 0x00 (0000ms, 1825ms total)
T49C0 002:462 JLINK_WriteReg(R4, 0x00000000)  returns 0x00 (0000ms, 1825ms total)
T49C0 002:463 JLINK_WriteReg(R5, 0x00000000)  returns 0x00 (0000ms, 1826ms total)
T49C0 002:463 JLINK_WriteReg(R6, 0x00000000)  returns 0x00 (0000ms, 1826ms total)
T49C0 002:463 JLINK_WriteReg(R7, 0x00000000)  returns 0x00 (0000ms, 1826ms total)
T49C0 002:463 JLINK_WriteReg(R8, 0x00000000)  returns 0x00 (0000ms, 1826ms total)
T49C0 002:463 JLINK_WriteReg(R9, 0x20000160)  returns 0x00 (0000ms, 1826ms total)
T49C0 002:463 JLINK_WriteReg(R10, 0x00000000)  returns 0x00 (0000ms, 1826ms total)
T49C0 002:463 JLINK_WriteReg(R11, 0x00000000)  returns 0x00 (0000ms, 1826ms total)
T49C0 002:463 JLINK_WriteReg(R12, 0x00000000)  returns 0x00 (0000ms, 1826ms total)
T49C0 002:463 JLINK_WriteReg(R13 (SP), 0x20001000)  returns 0x00 (0000ms, 1826ms total)
T49C0 002:463 JLINK_WriteReg(R14, 0x20000001)  returns 0x00 (0000ms, 1826ms total)
T49C0 002:463 JLINK_WriteReg(R15 (PC), 0x200000B6)  returns 0x00 (0000ms, 1826ms total)
T49C0 002:463 JLINK_WriteReg(XPSR, 0x01000000)  returns 0x00 (0000ms, 1826ms total)
T49C0 002:463 JLINK_WriteReg(MSP, 0x20001000)  returns 0x00 (0000ms, 1826ms total)
T49C0 002:463 JLINK_WriteReg(PSP, 0x20001000)  returns 0x00 (0000ms, 1826ms total)
T49C0 002:463 JLINK_WriteReg(CFBP, 0x00000000)  returns 0x00 (0000ms, 1826ms total)
T49C0 002:463 JLINK_SetBPEx(Addr = 0x20000000, Type = 0xFFFFFFF2)  returns 0x00000005 (0000ms, 1826ms total)
T49C0 002:463 JLINK_Go() -- CPU_ReadMem(4 bytes @ 0xE0001000) (0044ms, 1870ms total)
T49C0 002:507 JLINK_IsHalted() -- CPU_ReadMem(2 bytes @ 0x20000000)  returns TRUE (0121ms, 1991ms total)
T49C0 002:628 JLINK_ReadReg(R15 (PC))  returns 0x20000000 (0000ms, 1870ms total)
T49C0 002:628 JLINK_ClrBPEx(BPHandle = 0x00000005)  returns 0x00 (0000ms, 1870ms total)
T49C0 002:628 JLINK_ReadReg(R0)  returns 0x00000000 (0000ms, 1870ms total)
T49C0 002:630 JLINK_WriteReg(R0, 0x08001000)  returns 0x00 (0000ms, 1870ms total)
T49C0 002:631 JLINK_WriteReg(R1, 0x00000800)  returns 0x00 (0000ms, 1871ms total)
T49C0 002:631 JLINK_WriteReg(R2, 0x000000FF)  returns 0x00 (0000ms, 1871ms total)
T49C0 002:631 JLINK_WriteReg(R3, 0x00000000)  returns 0x00 (0000ms, 1871ms total)
T49C0 002:631 JLINK_WriteReg(R4, 0x00000000)  returns 0x00 (0000ms, 1871ms total)
T49C0 002:631 JLINK_WriteReg(R5, 0x00000000)  returns 0x00 (0000ms, 1871ms total)
T49C0 002:631 JLINK_WriteReg(R6, 0x00000000)  returns 0x00 (0000ms, 1871ms total)
T49C0 002:631 JLINK_WriteReg(R7, 0x00000000)  returns 0x00 (0000ms, 1871ms total)
T49C0 002:631 JLINK_WriteReg(R8, 0x00000000)  returns 0x00 (0000ms, 1871ms total)
T49C0 002:631 JLINK_WriteReg(R9, 0x20000160)  returns 0x00 (0000ms, 1871ms total)
T49C0 002:631 JLINK_WriteReg(R10, 0x00000000)  returns 0x00 (0000ms, 1871ms total)
T49C0 002:631 JLINK_WriteReg(R11, 0x00000000)  returns 0x00 (0001ms, 1872ms total)
T49C0 002:632 JLINK_WriteReg(R12, 0x00000000)  returns 0x00 (0000ms, 1872ms total)
T49C0 002:632 JLINK_WriteReg(R13 (SP), 0x20001000)  returns 0x00 (0000ms, 1872ms total)
T49C0 002:632 JLINK_WriteReg(R14, 0x20000001)  returns 0x00 (0000ms, 1872ms total)
T49C0 002:632 JLINK_WriteReg(R15 (PC), 0x20000020)  returns 0x00 (0000ms, 1872ms total)
T49C0 002:632 JLINK_WriteReg(XPSR, 0x01000000)  returns 0x00 (0000ms, 1872ms total)
T49C0 002:632 JLINK_WriteReg(MSP, 0x20001000)  returns 0x00 (0000ms, 1872ms total)
T49C0 002:632 JLINK_WriteReg(PSP, 0x20001000)  returns 0x00 (0000ms, 1872ms total)
T49C0 002:632 JLINK_WriteReg(CFBP, 0x00000000)  returns 0x00 (0000ms, 1872ms total)
T49C0 002:632 JLINK_SetBPEx(Addr = 0x20000000, Type = 0xFFFFFFF2)  returns 0x00000006 (0001ms, 1873ms total)
T49C0 002:633 JLINK_Go() -- CPU_ReadMem(4 bytes @ 0xE0001000) (0048ms, 1921ms total)
T49C0 002:681 JLINK_IsHalted() -- CPU_ReadMem(2 bytes @ 0x20000000)  returns TRUE (0121ms, 2042ms total)
T49C0 002:802 JLINK_ReadReg(R15 (PC))  returns 0x20000000 (0000ms, 1921ms total)
T49C0 002:802 JLINK_ClrBPEx(BPHandle = 0x00000006)  returns 0x00 (0000ms, 1921ms total)
T49C0 002:802 JLINK_ReadReg(R0)  returns 0x00000001 (0000ms, 1921ms total)
T49C0 002:802 JLINK_WriteReg(R0, 0x08001000)  returns 0x00 (0000ms, 1921ms total)
T49C0 002:802 JLINK_WriteReg(R1, 0x00000800)  returns 0x00 (0000ms, 1921ms total)
T49C0 002:802 JLINK_WriteReg(R2, 0x000000FF)  returns 0x00 (0000ms, 1921ms total)
T49C0 002:802 JLINK_WriteReg(R3, 0x00000000)  returns 0x00 (0001ms, 1922ms total)
T49C0 002:803 JLINK_WriteReg(R4, 0x00000000)  returns 0x00 (0000ms, 1922ms total)
T49C0 002:803 JLINK_WriteReg(R5, 0x00000000)  returns 0x00 (0000ms, 1922ms total)
T49C0 002:803 JLINK_WriteReg(R6, 0x00000000)  returns 0x00 (0000ms, 1922ms total)
T49C0 002:803 JLINK_WriteReg(R7, 0x00000000)  returns 0x00 (0000ms, 1922ms total)
T49C0 002:803 JLINK_WriteReg(R8, 0x00000000)  returns 0x00 (0000ms, 1922ms total)
T49C0 002:803 JLINK_WriteReg(R9, 0x20000160)  returns 0x00 (0000ms, 1922ms total)
T49C0 002:803 JLINK_WriteReg(R10, 0x00000000)  returns 0x00 (0000ms, 1922ms total)
T49C0 002:803 JLINK_WriteReg(R11, 0x00000000)  returns 0x00 (0000ms, 1922ms total)
T49C0 002:803 JLINK_WriteReg(R12, 0x00000000)  returns 0x00 (0000ms, 1922ms total)
T49C0 002:804 JLINK_WriteReg(R13 (SP), 0x20001000)  returns 0x00 (0000ms, 1922ms total)
T49C0 002:804 JLINK_WriteReg(R14, 0x20000001)  returns 0x00 (0000ms, 1922ms total)
T49C0 002:804 JLINK_WriteReg(R15 (PC), 0x200000B6)  returns 0x00 (0000ms, 1922ms total)
T49C0 002:804 JLINK_WriteReg(XPSR, 0x01000000)  returns 0x00 (0000ms, 1922ms total)
T49C0 002:804 JLINK_WriteReg(MSP, 0x20001000)  returns 0x00 (0000ms, 1922ms total)
T49C0 002:804 JLINK_WriteReg(PSP, 0x20001000)  returns 0x00 (0000ms, 1922ms total)
T49C0 002:804 JLINK_WriteReg(CFBP, 0x00000000)  returns 0x00 (0000ms, 1922ms total)
T49C0 002:804 JLINK_SetBPEx(Addr = 0x20000000, Type = 0xFFFFFFF2)  returns 0x00000007 (0000ms, 1922ms total)
T49C0 002:804 JLINK_Go() -- CPU_ReadMem(4 bytes @ 0xE0001000) (0044ms, 1966ms total)
T49C0 002:848 JLINK_IsHalted() -- CPU_ReadMem(2 bytes @ 0x20000000)  returns TRUE (0121ms, 2087ms total)
T49C0 002:969 JLINK_ReadReg(R15 (PC))  returns 0x20000000 (0000ms, 1966ms total)
T49C0 002:970 JLINK_ClrBPEx(BPHandle = 0x00000007)  returns 0x00 (0000ms, 1967ms total)
T49C0 002:970 JLINK_ReadReg(R0)  returns 0x00000000 (0000ms, 1967ms total)
T49C0 002:971 JLINK_WriteReg(R0, 0x00000001)  returns 0x00 (0000ms, 1967ms total)
T49C0 002:971 JLINK_WriteReg(R1, 0x00000800)  returns 0x00 (0000ms, 1967ms total)
T49C0 002:971 JLINK_WriteReg(R2, 0x000000FF)  returns 0x00 (0000ms, 1967ms total)
T49C0 002:971 JLINK_WriteReg(R3, 0x00000000)  returns 0x00 (0000ms, 1967ms total)
T49C0 002:971 JLINK_WriteReg(R4, 0x00000000)  returns 0x00 (0000ms, 1967ms total)
T49C0 002:971 JLINK_WriteReg(R5, 0x00000000)  returns 0x00 (0000ms, 1967ms total)
T49C0 002:971 JLINK_WriteReg(R6, 0x00000000)  returns 0x00 (0000ms, 1967ms total)
T49C0 002:971 JLINK_WriteReg(R7, 0x00000000)  returns 0x00 (0000ms, 1967ms total)
T49C0 002:971 JLINK_WriteReg(R8, 0x00000000)  returns 0x00 (0000ms, 1967ms total)
T49C0 002:971 JLINK_WriteReg(R9, 0x20000160)  returns 0x00 (0001ms, 1968ms total)
T49C0 002:972 JLINK_WriteReg(R10, 0x00000000)  returns 0x00 (0000ms, 1968ms total)
T49C0 002:972 JLINK_WriteReg(R11, 0x00000000)  returns 0x00 (0000ms, 1968ms total)
T49C0 002:972 JLINK_WriteReg(R12, 0x00000000)  returns 0x00 (0000ms, 1968ms total)
T49C0 002:972 JLINK_WriteReg(R13 (SP), 0x20001000)  returns 0x00 (0000ms, 1968ms total)
T49C0 002:972 JLINK_WriteReg(R14, 0x20000001)  returns 0x00 (0000ms, 1968ms total)
T49C0 002:972 JLINK_WriteReg(R15 (PC), 0x2000006A)  returns 0x00 (0000ms, 1968ms total)
T49C0 002:972 JLINK_WriteReg(XPSR, 0x01000000)  returns 0x00 (0000ms, 1968ms total)
T49C0 002:972 JLINK_WriteReg(MSP, 0x20001000)  returns 0x00 (0000ms, 1968ms total)
T49C0 002:972 JLINK_WriteReg(PSP, 0x20001000)  returns 0x00 (0000ms, 1968ms total)
T49C0 002:972 JLINK_WriteReg(CFBP, 0x00000000)  returns 0x00 (0000ms, 1968ms total)
T49C0 002:972 JLINK_SetBPEx(Addr = 0x20000000, Type = 0xFFFFFFF2)  returns 0x00000008 (0000ms, 1968ms total)
T49C0 002:972 JLINK_Go() -- CPU_ReadMem(4 bytes @ 0xE0001000) (0049ms, 2017ms total)
T49C0 003:021 JLINK_IsHalted() -- CPU_ReadMem(2 bytes @ 0x20000000)  returns TRUE (0120ms, 2137ms total)
T49C0 003:142 JLINK_ReadReg(R15 (PC))  returns 0x20000000 (0001ms, 2018ms total)
T49C0 003:143 JLINK_ClrBPEx(BPHandle = 0x00000008)  returns 0x00 (0000ms, 2018ms total)
T49C0 003:144 JLINK_ReadReg(R0)  returns 0x00000000 (0000ms, 2019ms total)
T49C0 003:219 JLINK_WriteMem(0x20000000, 0x0164 Bytes, ...) - Data: 00 BE 0A E0 0D 78 2D 06 68 40 08 24 40 00 00 D3 ... -- CPU_WriteMem(356 bytes @ 0x20000000)  returns 0x164 (0098ms, 2117ms total)
T49C0 003:317 JLINK_WriteReg(R0, 0x08000000)  returns 0x00 (0000ms, 2117ms total)
T49C0 003:318 JLINK_WriteReg(R1, 0x00B71B00)  returns 0x00 (0000ms, 2118ms total)
T49C0 003:318 JLINK_WriteReg(R2, 0x00000002)  returns 0x00 (0000ms, 2118ms total)
T49C0 003:318 JLINK_WriteReg(R3, 0x00000000)  returns 0x00 (0000ms, 2118ms total)
T49C0 003:318 JLINK_WriteReg(R4, 0x00000000)  returns 0x00 (0000ms, 2118ms total)
T49C0 003:318 JLINK_WriteReg(R5, 0x00000000)  returns 0x00 (0000ms, 2118ms total)
T49C0 003:318 JLINK_WriteReg(R6, 0x00000000)  returns 0x00 (0000ms, 2118ms total)
T49C0 003:318 JLINK_WriteReg(R7, 0x00000000)  returns 0x00 (0000ms, 2118ms total)
T49C0 003:318 JLINK_WriteReg(R8, 0x00000000)  returns 0x00 (0000ms, 2118ms total)
T49C0 003:318 JLINK_WriteReg(R9, 0x20000160)  returns 0x00 (0000ms, 2118ms total)
T49C0 003:318 JLINK_WriteReg(R10, 0x00000000)  returns 0x00 (0001ms, 2119ms total)
T49C0 003:319 JLINK_WriteReg(R11, 0x00000000)  returns 0x00 (0000ms, 2119ms total)
T49C0 003:319 JLINK_WriteReg(R12, 0x00000000)  returns 0x00 (0000ms, 2119ms total)
T49C0 003:319 JLINK_WriteReg(R13 (SP), 0x20001000)  returns 0x00 (0000ms, 2119ms total)
T49C0 003:319 JLINK_WriteReg(R14, 0x20000001)  returns 0x00 (0000ms, 2119ms total)
T49C0 003:319 JLINK_WriteReg(R15 (PC), 0x20000038)  returns 0x00 (0000ms, 2119ms total)
T49C0 003:319 JLINK_WriteReg(XPSR, 0x01000000)  returns 0x00 (0000ms, 2119ms total)
T49C0 003:319 JLINK_WriteReg(MSP, 0x20001000)  returns 0x00 (0000ms, 2119ms total)
T49C0 003:319 JLINK_WriteReg(PSP, 0x20001000)  returns 0x00 (0000ms, 2119ms total)
T49C0 003:319 JLINK_WriteReg(CFBP, 0x00000000)  returns 0x00 (0000ms, 2119ms total)
T49C0 003:319 JLINK_SetBPEx(Addr = 0x20000000, Type = 0xFFFFFFF2) -- CPU_ReadMem(2 bytes @ 0x20000000)  returns 0x00000009 (0007ms, 2126ms total)
T49C0 003:326 JLINK_Go() -- CPU_WriteMem(2 bytes @ 0x20000000) -- CPU_ReadMem(4 bytes @ 0xE0001000) (0055ms, 2181ms total)
T49C0 003:381 JLINK_IsHalted() -- CPU_ReadMem(2 bytes @ 0x20000000)  returns TRUE (0121ms, 2302ms total)
T49C0 003:502 JLINK_ReadReg(R15 (PC))  returns 0x20000000 (0000ms, 2181ms total)
T49C0 003:502 JLINK_ClrBPEx(BPHandle = 0x00000009)  returns 0x00 (0000ms, 2181ms total)
T49C0 003:502 JLINK_ReadReg(R0)  returns 0x00000000 (0001ms, 2182ms total)
T49C0 003:504 JLINK_WriteMem(0x20000164, 0x0400 Bytes, ...) - Data: 50 04 00 20 7D 10 00 08 89 03 00 08 8B 03 00 08 ... -- CPU_WriteMem(1024 bytes @ 0x20000164)  returns 0x400 (0265ms, 2447ms total)
T49C0 003:769 JLINK_WriteReg(R0, 0x08000000)  returns 0x00 (0000ms, 2447ms total)
T49C0 003:769 JLINK_WriteReg(R1, 0x00000400)  returns 0x00 (0000ms, 2447ms total)
T49C0 003:769 JLINK_WriteReg(R2, 0x20000164)  returns 0x00 (0000ms, 2447ms total)
T49C0 003:769 JLINK_WriteReg(R3, 0x00000000)  returns 0x00 (0000ms, 2447ms total)
T49C0 003:769 JLINK_WriteReg(R4, 0x00000000)  returns 0x00 (0000ms, 2447ms total)
T49C0 003:769 JLINK_WriteReg(R5, 0x00000000)  returns 0x00 (0000ms, 2447ms total)
T49C0 003:769 JLINK_WriteReg(R6, 0x00000000)  returns 0x00 (0000ms, 2447ms total)
T49C0 003:769 JLINK_WriteReg(R7, 0x00000000)  returns 0x00 (0000ms, 2447ms total)
T49C0 003:769 JLINK_WriteReg(R8, 0x00000000)  returns 0x00 (0000ms, 2447ms total)
T49C0 003:769 JLINK_WriteReg(R9, 0x20000160)  returns 0x00 (0000ms, 2447ms total)
T49C0 003:769 JLINK_WriteReg(R10, 0x00000000)  returns 0x00 (0000ms, 2447ms total)
T49C0 003:769 JLINK_WriteReg(R11, 0x00000000)  returns 0x00 (0000ms, 2447ms total)
T49C0 003:769 JLINK_WriteReg(R12, 0x00000000)  returns 0x00 (0000ms, 2447ms total)
T49C0 003:769 JLINK_WriteReg(R13 (SP), 0x20001000)  returns 0x00 (0000ms, 2447ms total)
T49C0 003:769 JLINK_WriteReg(R14, 0x20000001)  returns 0x00 (0000ms, 2447ms total)
T49C0 003:769 JLINK_WriteReg(R15 (PC), 0x200000F4)  returns 0x00 (0000ms, 2447ms total)
T49C0 003:769 JLINK_WriteReg(XPSR, 0x01000000)  returns 0x00 (0000ms, 2447ms total)
T49C0 003:769 JLINK_WriteReg(MSP, 0x20001000)  returns 0x00 (0000ms, 2447ms total)
T49C0 003:769 JLINK_WriteReg(PSP, 0x20001000)  returns 0x00 (0000ms, 2447ms total)
T49C0 003:769 JLINK_WriteReg(CFBP, 0x00000000)  returns 0x00 (0000ms, 2447ms total)
T49C0 003:769 JLINK_SetBPEx(Addr = 0x20000000, Type = 0xFFFFFFF2)  returns 0x0000000A (0000ms, 2447ms total)
T49C0 003:770 JLINK_Go() -- CPU_ReadMem(4 bytes @ 0xE0001000) (0052ms, 2500ms total)
T49C0 003:822 JLINK_IsHalted() -- CPU_ReadMem(2 bytes @ 0x20000000)  returns TRUE (0120ms, 2620ms total)
T49C0 003:942 JLINK_ReadReg(R15 (PC))  returns 0x20000000 (0000ms, 2500ms total)
T49C0 003:942 JLINK_ClrBPEx(BPHandle = 0x0000000A)  returns 0x00 (0000ms, 2500ms total)
T49C0 003:942 JLINK_ReadReg(R0)  returns 0x00000000 (0000ms, 2500ms total)
T49C0 003:942 JLINK_WriteMem(0x20000164, 0x0400 Bytes, ...) - Data: 03 00 03 20 8D F8 02 00 69 46 26 48 00 F0 90 F9 ... -- CPU_WriteMem(1024 bytes @ 0x20000164)  returns 0x400 (0265ms, 2765ms total)
T49C0 004:208 JLINK_WriteReg(R0, 0x08000400)  returns 0x00 (0000ms, 2765ms total)
T49C0 004:208 JLINK_WriteReg(R1, 0x00000400)  returns 0x00 (0000ms, 2765ms total)
T49C0 004:208 JLINK_WriteReg(R2, 0x20000164)  returns 0x00 (0000ms, 2765ms total)
T49C0 004:208 JLINK_WriteReg(R3, 0x00000000)  returns 0x00 (0001ms, 2766ms total)
T49C0 004:209 JLINK_WriteReg(R4, 0x00000000)  returns 0x00 (0000ms, 2766ms total)
T49C0 004:209 JLINK_WriteReg(R5, 0x00000000)  returns 0x00 (0000ms, 2766ms total)
T49C0 004:209 JLINK_WriteReg(R6, 0x00000000)  returns 0x00 (0000ms, 2766ms total)
T49C0 004:209 JLINK_WriteReg(R7, 0x00000000)  returns 0x00 (0000ms, 2766ms total)
T49C0 004:209 JLINK_WriteReg(R8, 0x00000000)  returns 0x00 (0000ms, 2766ms total)
T49C0 004:209 JLINK_WriteReg(R9, 0x20000160)  returns 0x00 (0000ms, 2766ms total)
T49C0 004:209 JLINK_WriteReg(R10, 0x00000000)  returns 0x00 (0000ms, 2766ms total)
T49C0 004:209 JLINK_WriteReg(R11, 0x00000000)  returns 0x00 (0000ms, 2766ms total)
T49C0 004:210 JLINK_WriteReg(R12, 0x00000000)  returns 0x00 (0000ms, 2766ms total)
T49C0 004:210 JLINK_WriteReg(R13 (SP), 0x20001000)  returns 0x00 (0000ms, 2766ms total)
T49C0 004:210 JLINK_WriteReg(R14, 0x20000001)  returns 0x00 (0000ms, 2766ms total)
T49C0 004:210 JLINK_WriteReg(R15 (PC), 0x200000F4)  returns 0x00 (0000ms, 2766ms total)
T49C0 004:210 JLINK_WriteReg(XPSR, 0x01000000)  returns 0x00 (0000ms, 2766ms total)
T49C0 004:210 JLINK_WriteReg(MSP, 0x20001000)  returns 0x00 (0000ms, 2766ms total)
T49C0 004:210 JLINK_WriteReg(PSP, 0x20001000)  returns 0x00 (0000ms, 2766ms total)
T49C0 004:210 JLINK_WriteReg(CFBP, 0x00000000)  returns 0x00 (0000ms, 2766ms total)
T49C0 004:210 JLINK_SetBPEx(Addr = 0x20000000, Type = 0xFFFFFFF2)  returns 0x0000000B (0000ms, 2766ms total)
T49C0 004:210 JLINK_Go() -- CPU_ReadMem(4 bytes @ 0xE0001000) (0053ms, 2819ms total)
T49C0 004:263 JLINK_IsHalted() -- CPU_ReadMem(2 bytes @ 0x20000000)  returns TRUE (0121ms, 2940ms total)
T49C0 004:384 JLINK_ReadReg(R15 (PC))  returns 0x20000000 (0000ms, 2819ms total)
T49C0 004:384 JLINK_ClrBPEx(BPHandle = 0x0000000B)  returns 0x00 (0000ms, 2819ms total)
T49C0 004:384 JLINK_ReadReg(R0)  returns 0x00000000 (0001ms, 2820ms total)
T49C0 004:386 JLINK_WriteMem(0x20000164, 0x0400 Bytes, ...) - Data: BC 43 05 FA 03 FC 4C EA 04 04 91 F8 03 C0 BC F1 ... -- CPU_WriteMem(1024 bytes @ 0x20000164)  returns 0x400 (0265ms, 3085ms total)
T49C0 004:651 JLINK_WriteReg(R0, 0x08000800)  returns 0x00 (0000ms, 3085ms total)
T49C0 004:651 JLINK_WriteReg(R1, 0x00000400)  returns 0x00 (0000ms, 3085ms total)
T49C0 004:651 JLINK_WriteReg(R2, 0x20000164)  returns 0x00 (0000ms, 3085ms total)
T49C0 004:651 JLINK_WriteReg(R3, 0x00000000)  returns 0x00 (0000ms, 3085ms total)
T49C0 004:651 JLINK_WriteReg(R4, 0x00000000)  returns 0x00 (0000ms, 3085ms total)
T49C0 004:651 JLINK_WriteReg(R5, 0x00000000)  returns 0x00 (0000ms, 3085ms total)
T49C0 004:651 JLINK_WriteReg(R6, 0x00000000)  returns 0x00 (0000ms, 3085ms total)
T49C0 004:651 JLINK_WriteReg(R7, 0x00000000)  returns 0x00 (0000ms, 3085ms total)
T49C0 004:651 JLINK_WriteReg(R8, 0x00000000)  returns 0x00 (0000ms, 3085ms total)
T49C0 004:651 JLINK_WriteReg(R9, 0x20000160)  returns 0x00 (0000ms, 3085ms total)
T49C0 004:651 JLINK_WriteReg(R10, 0x00000000)  returns 0x00 (0000ms, 3085ms total)
T49C0 004:651 JLINK_WriteReg(R11, 0x00000000)  returns 0x00 (0000ms, 3085ms total)
T49C0 004:651 JLINK_WriteReg(R12, 0x00000000)  returns 0x00 (0000ms, 3085ms total)
T49C0 004:651 JLINK_WriteReg(R13 (SP), 0x20001000)  returns 0x00 (0000ms, 3085ms total)
T49C0 004:651 JLINK_WriteReg(R14, 0x20000001)  returns 0x00 (0000ms, 3085ms total)
T49C0 004:651 JLINK_WriteReg(R15 (PC), 0x200000F4)  returns 0x00 (0001ms, 3086ms total)
T49C0 004:652 JLINK_WriteReg(XPSR, 0x01000000)  returns 0x00 (0000ms, 3086ms total)
T49C0 004:652 JLINK_WriteReg(MSP, 0x20001000)  returns 0x00 (0000ms, 3086ms total)
T49C0 004:652 JLINK_WriteReg(PSP, 0x20001000)  returns 0x00 (0000ms, 3086ms total)
T49C0 004:652 JLINK_WriteReg(CFBP, 0x00000000)  returns 0x00 (0000ms, 3086ms total)
T49C0 004:652 JLINK_SetBPEx(Addr = 0x20000000, Type = 0xFFFFFFF2)  returns 0x0000000C (0000ms, 3086ms total)
T49C0 004:652 JLINK_Go() -- CPU_ReadMem(4 bytes @ 0xE0001000) (0052ms, 3138ms total)
T49C0 004:704 JLINK_IsHalted() -- CPU_ReadMem(2 bytes @ 0x20000000)  returns TRUE (0121ms, 3259ms total)
T49C0 004:825 JLINK_ReadReg(R15 (PC))  returns 0x20000000 (0000ms, 3138ms total)
T49C0 004:826 JLINK_ClrBPEx(BPHandle = 0x0000000C)  returns 0x00 (0000ms, 3138ms total)
T49C0 004:826 JLINK_ReadReg(R0)  returns 0x00000000 (0000ms, 3138ms total)
T49C0 004:826 JLINK_WriteMem(0x20000164, 0x0400 Bytes, ...) - Data: 52 4D 6D 68 05 F4 80 34 02 25 05 EB 92 42 1C B9 ... -- CPU_WriteMem(1024 bytes @ 0x20000164)  returns 0x400 (0265ms, 3403ms total)
T49C0 005:091 JLINK_WriteReg(R0, 0x08000C00)  returns 0x00 (0000ms, 3403ms total)
T49C0 005:091 JLINK_WriteReg(R1, 0x00000400)  returns 0x00 (0000ms, 3403ms total)
T49C0 005:091 JLINK_WriteReg(R2, 0x20000164)  returns 0x00 (0001ms, 3404ms total)
T49C0 005:092 JLINK_WriteReg(R3, 0x00000000)  returns 0x00 (0000ms, 3404ms total)
T49C0 005:092 JLINK_WriteReg(R4, 0x00000000)  returns 0x00 (0000ms, 3404ms total)
T49C0 005:092 JLINK_WriteReg(R5, 0x00000000)  returns 0x00 (0000ms, 3404ms total)
T49C0 005:092 JLINK_WriteReg(R6, 0x00000000)  returns 0x00 (0000ms, 3404ms total)
T49C0 005:092 JLINK_WriteReg(R7, 0x00000000)  returns 0x00 (0000ms, 3404ms total)
T49C0 005:092 JLINK_WriteReg(R8, 0x00000000)  returns 0x00 (0000ms, 3404ms total)
T49C0 005:092 JLINK_WriteReg(R9, 0x20000160)  returns 0x00 (0000ms, 3404ms total)
T49C0 005:092 JLINK_WriteReg(R10, 0x00000000)  returns 0x00 (0000ms, 3404ms total)
T49C0 005:092 JLINK_WriteReg(R11, 0x00000000)  returns 0x00 (0001ms, 3405ms total)
T49C0 005:093 JLINK_WriteReg(R12, 0x00000000)  returns 0x00 (0000ms, 3405ms total)
T49C0 005:093 JLINK_WriteReg(R13 (SP), 0x20001000)  returns 0x00 (0000ms, 3405ms total)
T49C0 005:093 JLINK_WriteReg(R14, 0x20000001)  returns 0x00 (0000ms, 3405ms total)
T49C0 005:093 JLINK_WriteReg(R15 (PC), 0x200000F4)  returns 0x00 (0000ms, 3405ms total)
T49C0 005:093 JLINK_WriteReg(XPSR, 0x01000000)  returns 0x00 (0000ms, 3405ms total)
T49C0 005:093 JLINK_WriteReg(MSP, 0x20001000)  returns 0x00 (0000ms, 3405ms total)
T49C0 005:093 JLINK_WriteReg(PSP, 0x20001000)  returns 0x00 (0000ms, 3405ms total)
T49C0 005:093 JLINK_WriteReg(CFBP, 0x00000000)  returns 0x00 (0000ms, 3405ms total)
T49C0 005:094 JLINK_SetBPEx(Addr = 0x20000000, Type = 0xFFFFFFF2)  returns 0x0000000D (0000ms, 3405ms total)
T49C0 005:094 JLINK_Go() -- CPU_ReadMem(4 bytes @ 0xE0001000) (0052ms, 3457ms total)
T49C0 005:146 JLINK_IsHalted() -- CPU_ReadMem(2 bytes @ 0x20000000)  returns TRUE (0121ms, 3578ms total)
T49C0 005:267 JLINK_ReadReg(R15 (PC))  returns 0x20000000 (0000ms, 3457ms total)
T49C0 005:268 JLINK_ClrBPEx(BPHandle = 0x0000000D)  returns 0x00 (0000ms, 3457ms total)
T49C0 005:268 JLINK_ReadReg(R0)  returns 0x00000000 (0000ms, 3457ms total)
T49C0 005:268 JLINK_WriteMem(0x20000164, 0x0400 Bytes, ...) - Data: 04 E0 02 88 4B F6 FF 73 1A 40 02 80 70 47 02 46 ... -- CPU_WriteMem(1024 bytes @ 0x20000164)  returns 0x400 (0267ms, 3724ms total)
T49C0 005:535 JLINK_WriteReg(R0, 0x08001000)  returns 0x00 (0000ms, 3724ms total)
T49C0 005:535 JLINK_WriteReg(R1, 0x00000140)  returns 0x00 (0000ms, 3724ms total)
T49C0 005:535 JLINK_WriteReg(R2, 0x20000164)  returns 0x00 (0000ms, 3724ms total)
T49C0 005:535 JLINK_WriteReg(R3, 0x00000000)  returns 0x00 (0000ms, 3724ms total)
T49C0 005:535 JLINK_WriteReg(R4, 0x00000000)  returns 0x00 (0000ms, 3724ms total)
T49C0 005:535 JLINK_WriteReg(R5, 0x00000000)  returns 0x00 (0000ms, 3724ms total)
T49C0 005:535 JLINK_WriteReg(R6, 0x00000000)  returns 0x00 (0000ms, 3724ms total)
T49C0 005:535 JLINK_WriteReg(R7, 0x00000000)  returns 0x00 (0000ms, 3724ms total)
T49C0 005:535 JLINK_WriteReg(R8, 0x00000000)  returns 0x00 (0000ms, 3724ms total)
T49C0 005:535 JLINK_WriteReg(R9, 0x20000160)  returns 0x00 (0000ms, 3724ms total)
T49C0 005:535 JLINK_WriteReg(R10, 0x00000000)  returns 0x00 (0000ms, 3724ms total)
T49C0 005:535 JLINK_WriteReg(R11, 0x00000000)  returns 0x00 (0000ms, 3724ms total)
T49C0 005:535 JLINK_WriteReg(R12, 0x00000000)  returns 0x00 (0001ms, 3725ms total)
T49C0 005:536 JLINK_WriteReg(R13 (SP), 0x20001000)  returns 0x00 (0000ms, 3725ms total)
T49C0 005:536 JLINK_WriteReg(R14, 0x20000001)  returns 0x00 (0000ms, 3725ms total)
T49C0 005:536 JLINK_WriteReg(R15 (PC), 0x200000F4)  returns 0x00 (0000ms, 3725ms total)
T49C0 005:536 JLINK_WriteReg(XPSR, 0x01000000)  returns 0x00 (0000ms, 3725ms total)
T49C0 005:536 JLINK_WriteReg(MSP, 0x20001000)  returns 0x00 (0000ms, 3725ms total)
T49C0 005:536 JLINK_WriteReg(PSP, 0x20001000)  returns 0x00 (0000ms, 3725ms total)
T49C0 005:536 JLINK_WriteReg(CFBP, 0x00000000)  returns 0x00 (0000ms, 3725ms total)
T49C0 005:536 JLINK_SetBPEx(Addr = 0x20000000, Type = 0xFFFFFFF2)  returns 0x0000000E (0000ms, 3725ms total)
T49C0 005:536 JLINK_Go() -- CPU_ReadMem(4 bytes @ 0xE0001000) (0052ms, 3777ms total)
T49C0 005:588 JLINK_IsHalted() -- CPU_ReadMem(2 bytes @ 0x20000000)  returns TRUE (0121ms, 3898ms total)
T49C0 005:709 JLINK_ReadReg(R15 (PC))  returns 0x20000000 (0000ms, 3777ms total)
T49C0 005:709 JLINK_ClrBPEx(BPHandle = 0x0000000E)  returns 0x00 (0000ms, 3777ms total)
T49C0 005:709 JLINK_ReadReg(R0)  returns 0x00000000 (0000ms, 3777ms total)
T49C0 005:709 JLINK_WriteReg(R0, 0x00000002)  returns 0x00 (0000ms, 3777ms total)
T49C0 005:709 JLINK_WriteReg(R1, 0x00000140)  returns 0x00 (0000ms, 3777ms total)
T49C0 005:709 JLINK_WriteReg(R2, 0x20000164)  returns 0x00 (0000ms, 3777ms total)
T49C0 005:709 JLINK_WriteReg(R3, 0x00000000)  returns 0x00 (0000ms, 3777ms total)
T49C0 005:709 JLINK_WriteReg(R4, 0x00000000)  returns 0x00 (0000ms, 3777ms total)
T49C0 005:709 JLINK_WriteReg(R5, 0x00000000)  returns 0x00 (0000ms, 3777ms total)
T49C0 005:710 JLINK_WriteReg(R6, 0x00000000)  returns 0x00 (0000ms, 3777ms total)
T49C0 005:710 JLINK_WriteReg(R7, 0x00000000)  returns 0x00 (0000ms, 3777ms total)
T49C0 005:710 JLINK_WriteReg(R8, 0x00000000)  returns 0x00 (0000ms, 3777ms total)
T49C0 005:710 JLINK_WriteReg(R9, 0x20000160)  returns 0x00 (0000ms, 3777ms total)
T49C0 005:710 JLINK_WriteReg(R10, 0x00000000)  returns 0x00 (0000ms, 3777ms total)
T49C0 005:710 JLINK_WriteReg(R11, 0x00000000)  returns 0x00 (0000ms, 3777ms total)
T49C0 005:710 JLINK_WriteReg(R12, 0x00000000)  returns 0x00 (0000ms, 3777ms total)
T49C0 005:710 JLINK_WriteReg(R13 (SP), 0x20001000)  returns 0x00 (0000ms, 3777ms total)
T49C0 005:710 JLINK_WriteReg(R14, 0x20000001)  returns 0x00 (0000ms, 3777ms total)
T49C0 005:710 JLINK_WriteReg(R15 (PC), 0x2000006A)  returns 0x00 (0000ms, 3777ms total)
T49C0 005:710 JLINK_WriteReg(XPSR, 0x01000000)  returns 0x00 (0000ms, 3777ms total)
T49C0 005:710 JLINK_WriteReg(MSP, 0x20001000)  returns 0x00 (0001ms, 3778ms total)
T49C0 005:711 JLINK_WriteReg(PSP, 0x20001000)  returns 0x00 (0000ms, 3778ms total)
T49C0 005:711 JLINK_WriteReg(CFBP, 0x00000000)  returns 0x00 (0000ms, 3778ms total)
T49C0 005:711 JLINK_SetBPEx(Addr = 0x20000000, Type = 0xFFFFFFF2)  returns 0x0000000F (0000ms, 3778ms total)
T49C0 005:711 JLINK_Go() -- CPU_ReadMem(4 bytes @ 0xE0001000) (0052ms, 3830ms total)
T49C0 005:763 JLINK_IsHalted() -- CPU_ReadMem(2 bytes @ 0x20000000)  returns TRUE (0121ms, 3951ms total)
T49C0 005:884 JLINK_ReadReg(R15 (PC))  returns 0x20000000 (0000ms, 3830ms total)
T49C0 005:884 JLINK_ClrBPEx(BPHandle = 0x0000000F)  returns 0x00 (0000ms, 3830ms total)
T49C0 005:884 JLINK_ReadReg(R0)  returns 0x00000000 (0000ms, 3830ms total)
T49C0 005:940 JLINK_WriteMem(0x20000000, 0x0164 Bytes, ...) - Data: 00 BE 0A E0 0D 78 2D 06 68 40 08 24 40 00 00 D3 ... -- CPU_WriteMem(356 bytes @ 0x20000000)  returns 0x164 (0098ms, 3928ms total)
T49C0 006:039 JLINK_WriteReg(R0, 0x08000000)  returns 0x00 (0000ms, 3928ms total)
T49C0 006:039 JLINK_WriteReg(R1, 0x00B71B00)  returns 0x00 (0000ms, 3928ms total)
T49C0 006:039 JLINK_WriteReg(R2, 0x00000003)  returns 0x00 (0000ms, 3928ms total)
T49C0 006:039 JLINK_WriteReg(R3, 0x00000000)  returns 0x00 (0000ms, 3928ms total)
T49C0 006:039 JLINK_WriteReg(R4, 0x00000000)  returns 0x00 (0000ms, 3928ms total)
T49C0 006:039 JLINK_WriteReg(R5, 0x00000000)  returns 0x00 (0000ms, 3928ms total)
T49C0 006:039 JLINK_WriteReg(R6, 0x00000000)  returns 0x00 (0000ms, 3928ms total)
T49C0 006:039 JLINK_WriteReg(R7, 0x00000000)  returns 0x00 (0000ms, 3928ms total)
T49C0 006:040 JLINK_WriteReg(R8, 0x00000000)  returns 0x00 (0000ms, 3928ms total)
T49C0 006:040 JLINK_WriteReg(R9, 0x20000160)  returns 0x00 (0000ms, 3928ms total)
T49C0 006:040 JLINK_WriteReg(R10, 0x00000000)  returns 0x00 (0000ms, 3928ms total)
T49C0 006:040 JLINK_WriteReg(R11, 0x00000000)  returns 0x00 (0000ms, 3928ms total)
T49C0 006:040 JLINK_WriteReg(R12, 0x00000000)  returns 0x00 (0000ms, 3928ms total)
T49C0 006:040 JLINK_WriteReg(R13 (SP), 0x20001000)  returns 0x00 (0000ms, 3928ms total)
T49C0 006:040 JLINK_WriteReg(R14, 0x20000001)  returns 0x00 (0000ms, 3928ms total)
T49C0 006:040 JLINK_WriteReg(R15 (PC), 0x20000038)  returns 0x00 (0000ms, 3928ms total)
T49C0 006:040 JLINK_WriteReg(XPSR, 0x01000000)  returns 0x00 (0000ms, 3928ms total)
T49C0 006:040 JLINK_WriteReg(MSP, 0x20001000)  returns 0x00 (0000ms, 3928ms total)
T49C0 006:040 JLINK_WriteReg(PSP, 0x20001000)  returns 0x00 (0000ms, 3928ms total)
T49C0 006:040 JLINK_WriteReg(CFBP, 0x00000000)  returns 0x00 (0000ms, 3928ms total)
T49C0 006:040 JLINK_SetBPEx(Addr = 0x20000000, Type = 0xFFFFFFF2) -- CPU_ReadMem(2 bytes @ 0x20000000)  returns 0x00000010 (0007ms, 3935ms total)
T49C0 006:047 JLINK_Go() -- CPU_WriteMem(2 bytes @ 0x20000000) -- CPU_ReadMem(4 bytes @ 0xE0001000) (0055ms, 3990ms total)
T49C0 006:102 JLINK_IsHalted() -- CPU_ReadMem(2 bytes @ 0x20000000)  returns TRUE (0121ms, 4111ms total)
T49C0 006:223 JLINK_ReadReg(R15 (PC))  returns 0x20000000 (0000ms, 3990ms total)
T49C0 006:223 JLINK_ClrBPEx(BPHandle = 0x00000010)  returns 0x00 (0000ms, 3990ms total)
T49C0 006:224 JLINK_ReadReg(R0)  returns 0x00000000 (0000ms, 3991ms total)
T49C0 006:224 JLINK_WriteReg(R0, 0xFFFFFFFF)  returns 0x00 (0000ms, 3991ms total)
T49C0 006:224 JLINK_WriteReg(R1, 0x08000000)  returns 0x00 (0000ms, 3991ms total)
T49C0 006:224 JLINK_WriteReg(R2, 0x00001140)  returns 0x00 (0000ms, 3991ms total)
T49C0 006:224 JLINK_WriteReg(R3, 0x04C11DB7)  returns 0x00 (0000ms, 3991ms total)
T49C0 006:224 JLINK_WriteReg(R4, 0x00000000)  returns 0x00 (0000ms, 3991ms total)
T49C0 006:224 JLINK_WriteReg(R5, 0x00000000)  returns 0x00 (0000ms, 3991ms total)
T49C0 006:224 JLINK_WriteReg(R6, 0x00000000)  returns 0x00 (0000ms, 3991ms total)
T49C0 006:224 JLINK_WriteReg(R7, 0x00000000)  returns 0x00 (0000ms, 3991ms total)
T49C0 006:224 JLINK_WriteReg(R8, 0x00000000)  returns 0x00 (0000ms, 3991ms total)
T49C0 006:224 JLINK_WriteReg(R9, 0x20000160)  returns 0x00 (0001ms, 3992ms total)
T49C0 006:225 JLINK_WriteReg(R10, 0x00000000)  returns 0x00 (0000ms, 3992ms total)
T49C0 006:225 JLINK_WriteReg(R11, 0x00000000)  returns 0x00 (0000ms, 3992ms total)
T49C0 006:225 JLINK_WriteReg(R12, 0x00000000)  returns 0x00 (0000ms, 3992ms total)
T49C0 006:225 JLINK_WriteReg(R13 (SP), 0x20001000)  returns 0x00 (0000ms, 3992ms total)
T49C0 006:225 JLINK_WriteReg(R14, 0x20000001)  returns 0x00 (0000ms, 3992ms total)
T49C0 006:225 JLINK_WriteReg(R15 (PC), 0x20000002)  returns 0x00 (0000ms, 3992ms total)
T49C0 006:225 JLINK_WriteReg(XPSR, 0x01000000)  returns 0x00 (0000ms, 3992ms total)
T49C0 006:225 JLINK_WriteReg(MSP, 0x20001000)  returns 0x00 (0000ms, 3992ms total)
T49C0 006:225 JLINK_WriteReg(PSP, 0x20001000)  returns 0x00 (0001ms, 3993ms total)
T49C0 006:226 JLINK_WriteReg(CFBP, 0x00000000)  returns 0x00 (0000ms, 3993ms total)
T49C0 006:226 JLINK_SetBPEx(Addr = 0x20000000, Type = 0xFFFFFFF2)  returns 0x00000011 (0000ms, 3993ms total)
T49C0 006:226 JLINK_Go() -- CPU_ReadMem(4 bytes @ 0xE0001000) (0052ms, 4045ms total)
T49C0 006:278 JLINK_IsHalted()  returns FALSE (0008ms, 4053ms total)
T49C0 006:541 JLINK_IsHalted() -- CPU_ReadMem(2 bytes @ 0x20000000)  returns TRUE (0120ms, 4165ms total)
T49C0 006:661 JLINK_ReadReg(R15 (PC))  returns 0x20000000 (0000ms, 4045ms total)
T49C0 006:662 JLINK_ClrBPEx(BPHandle = 0x00000011)  returns 0x00 (0000ms, 4045ms total)
T49C0 006:662 JLINK_ReadReg(R0)  returns 0x44798C89 (0000ms, 4045ms total)
T49C0 006:662 JLINK_ReadMem (0x08000000, 0x0FF0 Bytes, ...) -- CPU_ReadMem(4096 bytes @ 0x08000000) -- Updating C cache (4096 bytes @ 0x08000000) -- Read from C cache (4080 bytes @ 0x08000000) - Data: F8 04 00 20 11 04 00 08 D9 01 00 08 DB 01 00 08 ...  returns 0x00 (1040ms, 5085ms total)
T49C0 007:703 JLINK_ReadMem (0x08000FF0, 0x0150 Bytes, ...) -- CPU_ReadMem(320 bytes @ 0x08001000) -- Updating C cache (320 bytes @ 0x08001000) -- Read from C cache (336 bytes @ 0x08000FF0) - Data: 08 E0 02 2D 03 D1 CA 48 70 30 06 68 02 E0 C8 48 ...  returns 0x00 (0087ms, 5172ms total)
T49C0 009:825 JLINK_Close() -- CPU_ReadMem(2 bytes @ 0x20000000) -- CPU_WriteMem(2 bytes @ 0x20000000) -- CPU_ReadMem(4 bytes @ 0xE0001000) >0x42 TIF> >0x28 TIF> >0x0D TIF> >0x21 TIF> (0045ms, 5217ms total)
T49C0 009:825  (0045ms, 5217ms total)
T49C0 009:825 Closed (0045ms, 5217ms total)
